Circuit: * C:\Users\25sad\Downloads\Draft1.asc

Direct Newton iteration for .op point succeeded.
Semiconductor Device Operating Points:
                        --- MOSFET Transistors ---
Name:          m2          m1
Model:        nmos        nmos
Id:          1.00e-11    2.45e-10
Vgs:         0.00e+00    4.95e-03
Vds:         5.00e+00    4.95e-03
Vbs:         0.00e+00    0.00e+00
Vth:         0.00e+00    0.00e+00
Vdsat:       0.00e+00    4.95e-03
Gm:          0.00e+00    9.90e-08
Gds:         0.00e+00    2.00e-11
Gmb:         0.00e+00    0.00e+00
Cbd:         0.00e+00    0.00e+00
Cbs:         0.00e+00    0.00e+00
Cgsov:       0.00e+00    0.00e+00
Cgdov:       0.00e+00    0.00e+00
Cgbov:       0.00e+00    0.00e+00
Cgs:         0.00e+00    0.00e+00
Cgd:         0.00e+00    0.00e+00
Cgb:        -0.00e+00    0.00e+00



Date: Wed Nov 29 12:27:21 2023
Total elapsed time: 0.037 seconds.

tnom = 27
temp = 27
method = trap
totiter = 11
traniter = 0
tranpoints = 0
accept = 0
rejected = 0
matrix size = 8
fillins = 0
solver = Normal
Matrix Compiler1: 228 bytes object code size
Matrix Compiler2: 540 bytes object code size
